EC-Lab ASCII FILE
Nb header lines : 58                          

Potentio Electrochemical Impedance Spectroscopy

Run on channel : 6 (SN 13414)
User : 
CE vs. WE compliance from -10 V to 10 V
Electrode connection : standard
Ewe ctrl range : min = 0.00 V, max = 5.00 V
Acquisition started on : 08/08/2018 18:44:05
Technique started on : 08/08/2018 19:44:18
Saved on :
	File : AK_EIS_78810_cycling_180808_04_PEIS_C06.mpr
	Directory : C:\EIS\Alison Keefe\
	Host : 192.168.0.2
Device : VMP3 (SN 0153)
Address : 192.168.0.3
EC-Lab for windows v11.10 (software)
Internet server v11.10 (firmware)
Command interpretor v11.10 (firmware)
Electrode material : 
Initial state : 
Electrolyte : 
Comments : 
Electrode surface area : 0.001 cm²
Characteristic mass : 0.001 g
Equivalent Weight : 0.000 g/eq.
Density : 0.000 g/cm3
Mode                Single sine         
E (V)               0.0000              
vs.                 Eoc                 
tE (h:m:s)          0:00:0.0000         
record              0                   
dI                  0.000               
unit dI             mA                  
dt (s)              0.000               
fi                  100.000             
unit fi             kHz                 
ff                  10.000              
unit ff             mHz                 
Nd                  10                  
Points              per decade          
spacing             Logarithmic         
Va (mV)             10.0                
pw                  0.10                
Na                  1                   
corr                0                   
E range min (V)     0.000               
E range max (V)     5.000               
I Range             Auto                
Bandwidth           5                   
nc cycles           0                   
goto Ns'            0                   
nr cycles           0                   
inc. cycle          0                   

freq/Hz	Re(Z)/Ohm	-Im(Z)/Ohm	|Z|/Ohm	Phase(Z)/deg	time/s	<Ewe>/V	<I>/mA	Cs/µF	Cp/µF	cycle number	I Range	|Ewe|/V	|I|/A	Re(Y)/Ohm-1	Im(Y)/Ohm-1	|Y|/Ohm-1	Phase(Y)/deg
1.0001951E+005	2.6189263E+000	1.6276802E+000	3.0835235E+000	-3.1861227E+001	3.613171413405085E+003	-3.5240073E-003	1.9267809E-001	9.7761154E-001	2.7240178E-001	1.000000000000000E+000	9	9.1855321E-003	2.9789077E-003	2.7544108E-001	1.7118847E-001	3.2430431E-001	3.1861227E+001
7.9169906E+004	2.7399077E+000	1.9137365E+000	3.3420775E+000	-3.4933048E+001	3.613435395257678E+003	-3.4709917E-003	1.8172812E-001	1.0504560E+000	3.4443644E-001	1.000000000000000E+000	9	1.0731261E-002	3.2109553E-003	2.4530302E-001	1.7133619E-001	2.9921508E-001	3.4933048E+001
6.2675770E+004	2.8921213E+000	2.2675803E+000	3.6750898E+000	-3.8098373E+001	3.613825417089494E+003	-3.4163734E-003	1.9706929E-001	1.1198447E+000	4.2633128E-001	1.000000000000000E+000	9	1.0122829E-002	2.7544440E-003	2.1413150E-001	1.6789073E-001	2.7210218E-001	3.8098373E+001
4.9619125E+004	3.1078811E+000	2.6958575E+000	4.1141915E+000	-4.0939224E+001	3.614214408148007E+003	-3.3917569E-003	2.0280588E-001	1.1898004E+000	5.1085651E-001	1.000000000000000E+000	9	1.0016607E-002	2.4346476E-003	1.8360960E-001	1.5926777E-001	2.4306113E-001	4.0939224E+001
3.9287098E+004	3.4062982E+000	3.2220325E+000	4.6887484E+000	-4.3407604E+001	3.614604408273168E+003	-3.3954838E-003	1.9699453E-001	1.2573040E+000	5.9372628E-001	1.000000000000000E+000	9	9.9810734E-003	2.1287287E-003	1.5494187E-001	1.4656021E-001	2.1327654E-001	4.3407604E+001
3.1103510E+004	3.7991269E+000	3.8349612E+000	5.3981748E+000	-4.5268944E+001	3.615150400725761E+003	-3.1981054E-003	1.3336162E-001	1.3342886E+000	6.7340732E-001	1.000000000000000E+000	10	9.3632722E-003	1.7345255E-003	1.3037367E-001	1.3160339E-001	1.8524779E-001	4.5268944E+001
2.4619137E+004	4.3181186E+000	4.5436125E+000	6.2682185E+000	-4.6457623E+001	3.615414415244988E+003	-3.1873158E-003	1.3546929E-001	1.4228072E+000	7.4758458E-001	1.000000000000000E+000	10	1.0255331E-002	1.6360838E-003	1.0990218E-001	1.1564132E-001	1.5953496E-001	4.6457623E+001
1.9492186E+004	5.0116367E+000	5.2953491E+000	7.2909002E+000	-4.6576740E+001	3.615678394804199E+003	-3.1717187E-003	1.3491806E-001	1.5419312E+000	8.1337696E-001	1.000000000000000E+000	10	1.0155749E-002	1.3929348E-003	9.4279498E-002	9.9616736E-002	1.3715728E-001	4.6576740E+001
1.5429687E+004	5.8988609E+000	6.0718822E+000	8.4654779E+000	-4.5828075E+001	3.615816589904061E+003	-3.1809986E-003	1.3541882E-001	1.6987900E+000	8.7394363E-001	1.000000000000000E+000	10	9.9378917E-003	1.1739315E-003	8.2312390E-002	8.4726721E-002	1.1812682E-001	4.5828075E+001
1.2216791E+004	7.0178304E+000	6.8050146E+000	9.7753859E+000	-4.4117947E+001	3.615954575883967E+003	-3.1850797E-003	1.3323267E-001	1.9144055E+000	9.2773563E-001	1.000000000000000E+000	10	9.3953228E-003	9.6112042E-004	7.3440403E-002	7.1213320E-002	1.0229775E-001	4.4117947E+001
9.6712695E+003	8.3541546E+000	7.4427876E+000	1.1188699E+001	-4.1698116E+001	3.616224988216854E+003	-3.1943412E-003	1.3501522E-001	2.2110624E+000	9.7839248E-001	1.000000000000000E+000	10	9.9193370E-003	8.8654965E-004	6.6733412E-002	5.9453368E-002	8.9375898E-002	4.1698116E+001
7.6553525E+003	9.8566465E+000	7.8785405E+000	1.2618434E+001	-3.8635780E+001	3.616396936945024E+003	-3.1768617E-003	1.4346834E-001	2.6388161E+000	1.0287025E+000	1.000000000000000E+000	10	9.5514692E-003	7.5694569E-004	6.1903935E-002	4.9480587E-002	7.9249136E-002	3.8635780E+001
6.0757290E+003	1.1431907E+001	8.0741482E+000	1.3995727E+001	-3.5232864E+001	3.616604504581526E+003	-3.1516303E-003	1.4448853E-001	3.2443302E+000	1.0797608E+000	1.000000000000000E+000	10	9.3174577E-003	6.6573592E-004	5.8361683E-002	4.1219793E-002	7.1450382E-002	3.5232864E+001
4.8015352E+003	1.3043847E+001	8.0816202E+000	1.5344528E+001	-3.1781252E+001	3.616844835872922E+003	-3.1410458E-003	1.4328708E-001	4.1014895E+000	1.1377095E+000	1.000000000000000E+000	10	9.1582239E-003	5.9683970E-004	5.5398580E-002	3.4323484E-002	6.5169811E-002	3.1781252E+001
3.8012153E+003	1.4563789E+001	7.8036146E+000	1.6522722E+001	-2.8183434E+001	3.617083866897607E+003	-3.1370767E-003	1.4335434E-001	5.3653970E+000	1.1968240E+000	1.000000000000000E+000	10	9.0507744E-003	5.4777745E-004	5.3347144E-002	2.8584631E-002	6.0522713E-002	2.8183434E+001
3.0071123E+003	1.5937748E+001	7.4054685E+000	1.7574207E+001	-2.4921919E+001	3.617540224439304E+003	-3.1414558E-003	1.4238833E-001	7.1469040E+000	1.2690289E+000	1.000000000000000E+000	10	9.8689254E-003	5.6155736E-004	5.1603060E-002	2.3977341E-002	5.6901570E-002	2.4921919E+001
2.3807615E+003	1.7114542E+001	6.9533567E+000	1.8473135E+001	-2.2111097E+001	3.617778845330628E+003	-3.1419590E-003	1.4226128E-001	9.6141243E+000	1.3621268E+000	1.000000000000000E+000	10	9.8118307E-003	5.3114054E-004	5.0151516E-002	2.0375734E-002	5.4132663E-002	2.2111097E+001
1.8856034E+003	1.8151009E+001	6.4347825E+000	1.9257870E+001	-1.9520117E+001	3.618017879261970E+003	-3.1389960E-003	1.4240701E-001	1.3117042E+001	1.4644926E+000	1.000000000000000E+000	10	9.7884964E-003	5.0828554E-004	4.8942290E-002	1.7350715E-002	5.1926825E-002	1.9520117E+001
1.4923873E+003	1.9022869E+001	5.9437346E+000	1.9929815E+001	-1.7351522E+001	3.618256584446630E+003	-3.1381203E-003	1.4238273E-001	1.7942343E+001	1.5958477E+000	1.000000000000000E+000	10	9.7602485E-003	4.8973103E-004	4.7892716E-002	1.4964178E-002	5.0176080E-002	1.7351522E+001
1.1818909E+003	1.9806799E+001	5.5370216E+000	2.0566183E+001	-1.5618418E+001	3.618495592271312E+003	-3.1445306E-003	1.4253968E-001	2.4320166E+001	1.7628345E+000	1.000000000000000E+000	10	9.7448695E-003	4.7382974E-004	4.6828140E-002	1.3090879E-002	4.8623510E-002	1.5618418E+001
9.3529883E+002	2.0446404E+001	5.1800470E+000	2.1092375E+001	-1.4216622E+001	3.618734879136013E+003	-3.1452014E-003	1.4236216E-001	3.2850052E+001	1.9813102E+000	1.000000000000000E+000	10	9.7350152E-003	4.6154193E-004	4.5958512E-002	1.1643480E-002	4.7410499E-002	1.4216622E+001
7.4023657E+002	2.1060747E+001	4.9311500E+000	2.1630333E+001	-1.3177812E+001	3.618973863200677E+003	-3.1431515E-003	1.4239207E-001	4.3601498E+001	2.2660599E+000	1.000000000000000E+000	10	9.7299609E-003	4.4982947E-004	4.5013975E-002	1.0539543E-002	4.6231374E-002	1.3177812E+001
5.8593738E+002	2.1621965E+001	4.7700438E+000	2.2141876E+001	-1.2440807E+001	3.619212567692026E+003	-3.1469718E-003	1.4185020E-001	5.6943810E+001	2.6427886E+000	1.000000000000000E+000	10	9.7276177E-003	4.3933123E-004	4.4102818E-002	9.7295679E-003	4.5163292E-002	1.2440807E+001
4.6396060E+002	2.2151968E+001	4.6545177E+000	2.2635685E+001	-1.1866231E+001	3.619452428823439E+003	-3.1465245E-003	1.4145595E-001	7.3699463E+001	3.1162081E+000	1.000000000000000E+000	10	9.7278152E-003	4.2975572E-004	4.3233961E-002	9.0842154E-003	4.4178031E-002	1.1866231E+001
3.6746927E+002	2.2659084E+001	4.6270537E+000	2.3126688E+001	-1.1541299E+001	3.619690453768053E+003	-3.1445306E-003	1.4103740E-001	9.3604034E+001	3.7469404E+000	1.000000000000000E+000	10	9.7197648E-003	4.2028347E-004	4.2365804E-002	8.6512258E-003	4.3240085E-002	1.1541299E+001
2.9083755E+002	2.3153118E+001	4.6282816E+000	2.3611181E+001	-1.1304359E+001	3.619929298419433E+003	-3.1425739E-003	1.4118128E-001	1.1823605E+002	4.5431180E+000	1.000000000000000E+000	10	9.7185466E-003	4.1160782E-004	4.1531160E-002	8.3020311E-003	4.2352814E-002	1.1304359E+001
2.3036856E+002	2.3711924E+001	4.8097210E+000	2.4194809E+001	-1.1466294E+001	3.620168599870798E+003	-3.1426484E-003	1.4077768E-001	1.4364053E+002	5.6763926E+000	1.000000000000000E+000	10	9.7189452E-003	4.0169546E-004	4.0506285E-002	8.2162842E-003	4.1331179E-002	1.1466294E+001
1.8239301E+002	2.4410606E+001	5.0472283E+000	2.4926937E+001	-1.1682072E+001	3.620649449120319E+003	-3.1608173E-003	1.2995613E-001	1.7288567E+002	7.0880551E+000	1.000000000000000E+000	11	9.7365249E-003	3.9060254E-004	3.9286263E-002	8.1229741E-003	4.0117241E-002	1.1682072E+001
1.4430731E+002	2.5019379E+001	5.3280387E+000	2.5580408E+001	-1.2021921E+001	3.620889969211763E+003	-3.1635752E-003	1.2989888E-001	2.0699716E+002	8.9801626E+000	1.000000000000000E+000	11	9.7317575E-003	3.8043794E-004	3.8235042E-002	8.1423996E-003	3.9092418E-002	1.2021921E+001
1.1430499E+002	2.5674879E+001	5.6561441E+000	2.6290520E+001	-1.2423745E+001	3.621130251569833E+003	-3.1610408E-003	1.2984179E-001	2.4616963E+002	1.1394023E+001	1.000000000000000E+000	11	9.7185513E-003	3.6965992E-004	3.7145831E-002	8.1831804E-003	3.8036525E-002	1.2423745E+001
9.0492279E+001	2.6419481E+001	6.0543633E+000	2.7104322E+001	-1.2907201E+001	3.621367713581058E+003	-3.1617119E-003	1.2949187E-001	2.9049597E+002	1.4494390E+001	1.000000000000000E+000	11	9.7222645E-003	3.5869793E-004	3.5962276E-002	8.2412176E-003	3.6894485E-002	1.2907201E+001
7.1580475E+001	2.7216764E+001	6.5094442E+000	2.7984373E+001	-1.3450780E+001	3.621602052605580E+003	-3.1666872E-003	1.2973584E-001	3.4157150E+002	1.8481546E+001	1.000000000000000E+000	11	9.7182207E-003	3.4727313E-004	3.4754042E-002	8.3121378E-003	3.5734229E-002	1.3450780E+001
5.6686996E+001	2.8120483E+001	7.0065455E+000	2.8980223E+001	-1.3991024E+001	3.621835397709961E+003	-3.1694637E-003	1.2906997E-001	4.0071237E+002	2.3422714E+001	1.000000000000000E+000	11	9.7246040E-003	3.3556001E-004	3.3482615E-002	8.3425818E-003	3.4506291E-002	1.3991024E+001
4.4899414E+001	2.9077116E+001	7.5616732E+000	3.0044260E+001	-1.4577211E+001	3.622075432494676E+003	-3.1614136E-003	1.2971440E-001	4.6877188E+002	2.9694386E+001	1.000000000000000E+000	11	9.7229276E-003	3.2362013E-004	3.2212786E-002	8.3771227E-003	3.3284228E-002	1.4577211E+001
3.5557533E+001	3.0046761E+001	8.1336689E+000	3.1128193E+001	-1.5146969E+001	3.622311489812550E+003	-3.1633331E-003	1.2900972E-001	5.5030322E+002	3.7572250E+001	1.000000000000000E+000	11	9.7198216E-003	3.1225139E-004	3.1009149E-002	8.3941873E-003	3.2125220E-002	1.5146969E+001
2.8170067E+001	3.1075556E+001	8.7080269E+000	3.2272587E+001	-1.5653995E+001	3.622565211051304E+003	-3.1574536E-003	1.2950037E-001	6.4880243E+002	4.7237232E+001	1.000000000000000E+000	11	9.7210566E-003	3.0121717E-004	2.9836738E-002	8.3608842E-003	3.0986050E-002	1.5653995E+001
2.2289581E+001	3.2049328E+001	9.3960867E+000	3.3398293E+001	-1.6339859E+001	3.622781319248243E+003	-3.1637989E-003	1.2866074E-001	7.5992578E+002	6.0147377E+001	1.000000000000000E+000	11	9.7105158E-003	2.9074887E-004	2.8732302E-002	8.4236143E-003	2.9941650E-002	1.6339859E+001
1.7635439E+001	3.2987030E+001	1.0222854E+001	3.4534779E+001	-1.7218483E+001	3.623050433714336E+003	-3.1547702E-003	1.2965284E-001	8.8279877E+002	7.7355759E+001	1.000000000000000E+000	11	9.7124577E-003	2.8123701E-004	2.7658578E-002	8.5715391E-003	2.8956316E-002	1.7218483E+001
1.3950888E+001	3.3990154E+001	1.1335669E+001	3.5830544E+001	-1.8443472E+001	3.623304454686397E+003	-3.1593451E-003	1.2945411E-001	1.0064012E+003	1.0072995E+002	1.000000000000000E+000	11	9.7136982E-003	2.7110105E-004	2.6475633E-002	8.8295871E-003	2.7909150E-002	1.8443472E+001
1.1050212E+001	3.4990978E+001	1.2800748E+001	3.7258926E+001	-2.0094034E+001	3.623522998723492E+003	-3.1619354E-003	1.2671755E-001	1.1251598E+003	1.3280800E+002	1.000000000000000E+000	11	9.7183576E-003	2.6083301E-004	2.5205504E-002	9.2209289E-003	2.6839206E-002	2.0094034E+001
8.7584038E+000	3.5954094E+001	1.4540986E+001	3.8783207E+001	-2.2019983E+001	3.623794102069689E+003	-3.1584878E-003	1.2951733E-001	1.2496871E+003	1.7567162E+002	1.000000000000000E+000	11	9.7194482E-003	2.5060971E-004	2.3903469E-002	9.6673276E-003	2.5784357E-002	2.2019983E+001
6.9259739E+000	3.6808826E+001	1.7084383E+001	4.0580364E+001	-2.4897816E+001	3.623971739651446E+003	-3.1655878E-003	1.2978919E-001	1.3450548E+003	2.3840024E+002	1.000000000000000E+000	11	9.7137764E-003	2.3937134E-004	2.2352191E-002	1.0374506E-002	2.4642460E-002	2.4897816E+001
5.4863052E+000	3.8650818E+001	2.0052683E+001	4.3543034E+001	-2.7421030E+001	3.624194414301994E+003	-3.1594010E-003	1.2474041E-001	1.4466639E+003	3.0681406E+002	1.000000000000000E+000	11	9.7161327E-003	2.2313862E-004	2.0385498E-002	1.0576333E-002	2.2965787E-002	2.7421030E+001
4.3402772E+000	3.9666035E+001	2.3451910E+001	4.6080215E+001	-3.0593025E+001	3.624468363808366E+003	-3.1539970E-003	1.2817344E-001	1.5635956E+003	4.0499707E+002	1.000000000000000E+000	11	9.7159082E-003	2.1084772E-004	1.8680554E-002	1.1044580E-002	2.1701287E-002	3.0593025E+001
3.4385996E+000	4.2397896E+001	2.7931812E+001	5.0771721E+001	-3.3376965E+001	3.624806816704440E+003	-3.1619633E-003	1.3043819E-001	1.6570645E+003	5.0152649E+002	1.000000000000000E+000	11	9.7096050E-003	1.9124041E-004	1.6447524E-002	1.0835659E-002	1.9696003E-002	3.3376965E+001
2.7240233E+000	4.4579716E+001	3.3909405E+001	5.6010704E+001	-3.7258305E+001	3.625228754964468E+003	-3.1582140E-003	1.2917866E-001	1.7230154E+003	6.3152045E+002	1.000000000000000E+000	11	9.7130360E-003	1.7341392E-004	1.4210038E-002	1.0808815E-002	1.7853729E-002	3.7258305E+001
2.1557667E+000	4.7890438E+001	4.0199905E+001	6.2526207E+001	-4.0010567E+001	3.626266064933778E+003	-3.1453460E-003	1.3230304E-001	1.8365101E+003	7.5913538E+002	1.000000000000000E+000	12	9.7184433E-003	1.5542992E-004	1.2249677E-002	1.0282550E-002	1.5993293E-002	4.0010567E+001
1.7057856E+000	5.3280628E+001	4.7881031E+001	7.1633919E+001	-4.1944683E+001	3.626927823258491E+003	-3.1457194E-003	1.3097973E-001	1.9486427E+003	8.7060626E+002	1.000000000000000E+000	12	9.7181695E-003	1.3566436E-004	1.0383217E-002	9.3309544E-003	1.3959867E-002	4.1944683E+001
1.3511760E+000	5.9126915E+001	5.6459724E+001	8.1753853E+001	-4.3678120E+001	3.627759025618027E+003	-3.1434968E-003	1.3122815E-001	2.0862649E+003	9.9501703E+002	1.000000000000000E+000	12	9.7153746E-003	1.1883691E-004	8.8464450E-003	8.4473854E-003	1.2231840E-002	4.3678120E+001
1.0690335E+000	6.7673927E+001	6.5649261E+001	9.4284599E+001	-4.4129967E+001	3.628804848227635E+003	-3.1417739E-003	1.3120519E-001	2.2677698E+003	1.0994542E+003	1.000000000000000E+000	12	9.7157024E-003	1.0304655E-004	7.6127201E-003	7.3849633E-003	1.0606186E-002	4.4129967E+001
8.4550840E-001	7.9197708E+001	7.5873711E+001	1.0967724E+002	-4.3772038E+001	3.630121824556889E+003	-3.1416446E-003	1.3074006E-001	2.4809092E+003	1.1873000E+003	1.000000000000000E+000	12	9.7137410E-003	8.8566609E-005	6.5838448E-003	6.3075153E-003	9.1176620E-003	4.3772038E+001
6.7071593E-001	9.3109650E+001	8.6064590E+001	1.2679322E+002	-4.2748314E+001	3.631777950262251E+003	-3.1440163E-003	1.2998179E-001	2.7571284E+003	1.2703224E+003	1.000000000000000E+000	12	9.7143305E-003	7.6615535E-005	5.7916539E-003	5.3534340E-003	7.8868568E-003	4.2748314E+001
5.3059626E-001	1.0993085E+002	9.5042625E+001	1.4531996E+002	-4.0845623E+001	3.633866930441473E+003	-3.1430952E-003	1.2917507E-001	3.1560039E+003	1.3499691E+003	1.000000000000000E+000	12	9.7127613E-003	6.6837078E-005	5.2055786E-003	4.5005735E-003	6.8813669E-003	4.0845623E+001
4.2038846E-001	1.2908319E+002	1.0101467E+002	1.6390984E+002	-3.8045128E+001	3.636499605713107E+003	-3.1468677E-003	1.2817799E-001	3.7478730E+003	1.4234551E+003	1.000000000000000E+000	12	9.7104469E-003	5.9242615E-005	4.8046270E-003	3.7598840E-003	6.1009154E-003	3.8045128E+001
3.3258826E-001	1.5029681E+002	1.0334825E+002	1.8240063E+002	-3.4513493E+001	3.639823301604352E+003	-3.1455702E-003	1.2706088E-001	4.6303101E+003	1.4864957E+003	1.000000000000000E+000	12	9.7128982E-003	5.3250355E-005	4.5174886E-003	3.1063505E-003	5.4824371E-003	3.4513493E+001
2.6327759E-001	1.7170313E+002	1.0135852E+002	1.9938785E+002	-3.0553888E+001	3.644018164843597E+003	-3.1450249E-003	1.2575090E-001	5.9641147E+003	1.5412360E+003	1.000000000000000E+000	12	9.7153559E-003	4.8725917E-005	4.3189768E-003	2.5495463E-003	5.0153509E-003	3.0553888E+001
2.0813347E-001	1.9204636E+002	9.5263222E+001	2.1437556E+002	-2.6383381E+001	3.649320541575420E+003	-3.1476906E-003	1.2419588E-001	8.0269946E+003	1.5850863E+003	1.000000000000000E+000	12	9.7122500E-003	4.5304838E-005	4.1788379E-003	2.0728824E-003	4.6647107E-003	2.6383381E+001
1.6510630E-001	2.1039986E+002	8.6197540E+001	2.2737219E+002	-2.2278147E+001	3.656000940879447E+003	-3.1469809E-003	1.2238587E-001	1.1183085E+004	1.6072250E+003	1.000000000000000E+000	12	9.7148009E-003	4.2726424E-005	4.0697781E-003	1.6673247E-003	4.3980754E-003	2.2278147E+001
1.3066129E-001	2.2688249E+002	7.5589310E+001	2.3914307E+002	-1.8426270E+001	3.664438560400144E+003	-3.1506817E-003	1.2027976E-001	1.6114350E+004	1.6099707E+003	1.000000000000000E+000	12	9.7147198E-003	4.0623047E-005	3.9672120E-003	1.3217363E-003	4.1815974E-003	1.8426270E+001
1.0337275E-001	2.4130913E+002	6.5439156E+001	2.5002475E+002	-1.5172782E+001	3.675099753306524E+003	-3.1529223E-003	1.1789490E-001	2.3527533E+004	1.6117057E+003	1.000000000000000E+000	12	9.7130695E-003	3.8848433E-005	3.8601814E-003	1.0468193E-003	3.9996039E-003	1.5172782E+001
8.1859410E-002	2.5257527E+002	5.7674706E+001	2.5907651E+002	-1.2862759E+001	3.688558975359207E+003	-3.1467916E-003	1.1524139E-001	3.3710574E+004	1.6706322E+003	1.000000000000000E+000	12	9.7127995E-003	3.7490081E-005	3.7630047E-003	8.5926929E-004	3.8598636E-003	1.2862759E+001
6.4780258E-002	2.6072751E+002	5.1552963E+001	2.6577536E+002	-1.1184674E+001	3.705562854380099E+003	-3.1446903E-003	1.1235983E-001	4.7656688E+004	1.7930883E+003	1.000000000000000E+000	12	9.7167417E-003	3.6559981E-005	3.6911138E-003	7.2983425E-004	3.7625760E-003	1.1184674E+001
5.1269840E-002	2.6459619E+002	4.8318974E+001	2.6897186E+002	-1.0348980E+001	3.727043738733730E+003	-3.1478577E-003	1.0921181E-001	6.4245164E+004	2.0733000E+003	1.000000000000000E+000	12	9.7131301E-003	3.6112069E-005	3.6573780E-003	6.6788855E-004	3.7178609E-003	1.0348980E+001
4.0588621E-002	2.6473032E+002	4.4834175E+001	2.6850000E+002	-9.6122856E+000	3.754173690795709E+003	-3.1486289E-003	1.0576613E-001	8.7459430E+004	2.4385767E+003	1.000000000000000E+000	12	9.7142225E-003	3.6179601E-005	3.6721053E-003	6.2190008E-004	3.7243948E-003	9.6122856E+000
